
T2930 000:015 SEGGER J-Link V4.68a Log File (0001ms, 0016ms total)
T2930 000:015 DLL Compiled: Apr 12 2013 13:26:50 (0001ms, 0016ms total)
T2930 000:015 Logging started @ 2017-05-12 17:34 (0001ms, 0016ms total)
T2930 000:016 JLINK_SetWarnOutHandler(...) (0000ms, 0016ms total)
T2930 000:016 JLINK_OpenEx(...)
Firmware: J-Link ARM V8 compiled Nov 28 2014 13:44:46
Hardware: V8.00
Feature(s): RDI,FlashDL,FlashBP,JFlash,GDBFull  returns O.K. (0007ms, 0023ms total)
T2930 000:023 JLINK_SetErrorOutHandler(...) (0000ms, 0023ms total)
T2930 000:023 JLINK_ExecCommand("ProjectFile = "E:\Projects\blink\JLinkSettings.ini"", ...)  returns 0x00 (0000ms, 0023ms total)
T2930 000:023 JLINK_ExecCommand("Device = LPC4357", ...)
                JLINK_AddMirrorAreaEx(Addr = 0x00000000, Size = 0x10000000) (0000ms, 0000ms total)
              Device "LPC4357_M4" selected (1024 KB flash, 40 KB RAM).  returns 0x00 (0001ms, 0024ms total)
T2930 000:024 JLINK_ExecCommand("DisableConnectionTimeout", ...)  returns 0x00 (0000ms, 0024ms total)
T2930 000:024 JLINK_GetHardwareVersion()  returns 0x13880 (0000ms, 0024ms total)
T2930 000:024 JLINK_GetDLLVersion()  returns 46801 (0000ms, 0024ms total)
T2930 000:024 JLINK_GetFirmwareString(...) (0000ms, 0024ms total)
T2930 000:025 JLINK_GetDLLVersion()  returns 46801 (0000ms, 0024ms total)
T2930 000:025 JLINK_GetCompileDateTime() (0000ms, 0024ms total)
T2930 000:025 JLINK_GetFirmwareString(...) (0000ms, 0024ms total)
T2930 000:025 JLINK_GetHardwareVersion()  returns 0x13880 (0000ms, 0024ms total)
T2930 000:026 JLINK_TIF_Select(JLINKARM_TIF_SWD)  returns 0x00 (0000ms, 0024ms total)
T2930 000:026 JLINK_SetSpeed(1000) (0000ms, 0024ms total)
T2930 000:026 JLINK_GetId() >0x108 TIF>Found SWD-DP with ID 0x2BA01477 >0x0D TIF> >0x21 TIF> >0x0D TIF> >0x28 TIF> >0x0D TIF> >0x28 TIF> >0x0D TIF> >0x21 TIF> >0x0D TIF> >0x21 TIF> >0x0D TIF> >0x28 TIF> >0x0D TIF> >0x21 TIF> >0x0D TIF> >0x21 TIF> >0x0D TIF> >0x21 TIF> >0x0D TIF> >0x21 TIF> >0x0D TIF> >0x21 TIF> >0x0D TIF> >0x28 TIF> >0x0D TIF> >0x28 TIF> >0x0D TIF> >0x21 TIF> >0x0D TIF> >0x21 TIF> >0x0D TIF> >0x28 TIF> >0x0D TIF> >0x21 TIF> >0x0D TIF> >0x21 TIF> >0x0D TIF> >0x28 TIF> >0x0D TIF>
 >0x28 TIF> >0x0D TIF> >0x28 TIF> >0x0D TIF> >0x21 TIF> >0x0D TIF> >0x21 TIF> >0x0D TIF> >0x28 TIF> >0x0D TIF> >0x21 TIF> >0x0D TIF> >0x21 TIF> >0x0D TIF> >0x21 TIF>TPIU fitted.ETM fitted. >0x0D TIF> >0x28 TIF> >0x0D TIF> >0x21 TIF> >0x0D TIF> >0x21 TIF> >0x0D TIF> >0x28 TIF> >0x0D TIF> >0x21 TIF> >0x0D TIF> >0x21 TIF>FPUnit: 6 code (BP) slots and 2 literal slots >0x0D TIF> >0x28 TIF> >0x0D TIF> >0x21 TIF> >0x0D TIF> >0x21 TIF> >0x0D TIF> >0x28 TIF> >0x0D TIF> >0x21 TIF> >0x0D TIF> >0x21 TIF> >0x0D TIF>
 >0x28 TIF> >0x0D TIF> >0x21 TIF> >0x0D TIF> >0x21 TIF> >0x0D TIF> >0x28 TIF> >0x0D TIF> >0x21 TIF> >0x0D TIF> >0x21 TIF>Found Cortex-M4 r0p1, Little endian. >0x0D TIF> >0x21 TIF>  returns 0x2BA01477 (0029ms, 0053ms total)
T2930 000:055 JLINK_GetDeviceFamily()  returns 14 (0000ms, 0053ms total)
T2930 000:055 JLINK_ReadMem (0xE00FFFF0, 0x0010 Bytes, ...) -- CPU is running -- CPU_ReadMem(16 bytes @ 0xE00FFFF0) -- Data:  0D 00 00 00 10 00 00 00 05 00 00 00 B1 00 00 00  returns 0x00 (0001ms, 0054ms total)
T2930 000:056 JLINK_ReadMem (0xE00FFFD0, 0x0020 Bytes, ...) -- CPU is running -- CPU_ReadMem(32 bytes @ 0xE00FFFD0) -- Data:  04 00 00 00 00 00 00 00 00 00 00 00 00 00 00 00 ...  returns 0x00 (0001ms, 0055ms total)
T2930 000:057 JLINK_ReadMem (0xE00FF000, 0x0018 Bytes, ...) -- CPU is running -- CPU_ReadMem(24 bytes @ 0xE00FF000) -- Data:  03 F0 F0 FF 03 20 F0 FF 03 30 F0 FF 03 10 F0 FF ...  returns 0x00 (0001ms, 0056ms total)
T2930 000:058 JLINK_ReadMemU32(0xE000ED00, 0x0001 Items, ...) -- CPU is running -- CPU_ReadMem(4 bytes @ 0xE000ED00) -- Data:  41 C2 0F 41  returns 0x01 (0001ms, 0057ms total)
T2930 000:059 JLINK_ReadMemU32(0xE000EF40, 0x0001 Items, ...) -- CPU is running -- CPU_ReadMem(4 bytes @ 0xE000EF40) -- Data:  21 00 11 10  returns 0x01 (0001ms, 0058ms total)
T2930 000:060 JLINK_ReadMemU32(0xE000EF44, 0x0001 Items, ...) -- CPU is running -- CPU_ReadMem(4 bytes @ 0xE000EF44) -- Data:  11 00 00 11  returns 0x01 (0000ms, 0058ms total)
T2930 000:060 JLINK_SetResetType(JLINKARM_RESET_TYPE_NORMAL)  returns JLINKARM_RESET_TYPE_NORMAL (0000ms, 0058ms total)
T2930 000:060 JLINK_Reset() -- CPU_ReadMem(64 bytes @ 0x10000000) -- CPU_ReadMem(64 bytes @ 0x10080000) -- CPU_ReadMem(4096 bytes @ 0x10089000) -- CPU_WriteMem(4 bytes @ 0x40043100) -- CPU_WriteMem(4 bytes @ 0x4004312C) -- CPU_ReadMem(4 bytes @ 0xE000EDFC) -- CPU_ReadMem(4 bytes @ 0xE0001020) -- CPU_ReadMem(4 bytes @ 0xE0001024) -- CPU_ReadMem(4 bytes @ 0xE0001028) -- CPU_WriteMem(4 bytes @ 0xE0001020) -- CPU_WriteMem(4 bytes @ 0xE0001024) -- CPU_WriteMem(4 bytes @ 0xE0001028)
 -- CPU_ReadMem(8192 bytes @ 0x10400000) -- CPU_WriteMem(4 bytes @ 0xE000ED0C) -- CPU_WriteMem(4 bytes @ 0xE0001020) -- CPU_WriteMem(4 bytes @ 0xE0001024) -- CPU_WriteMem(4 bytes @ 0xE0001028) -- CPU_WriteMem(64 bytes @ 0x10000000) -- CPU_WriteMem(64 bytes @ 0x10080000) -- CPU_WriteMem(4096 bytes @ 0x10089000) -- CPU_ReadMem(4 bytes @ 0x00000000) -- CPU_WriteMem(4 bytes @ 0xE000EDF8) -- CPU_WriteMem(4 bytes @ 0xE000EDF4) -- CPU_ReadMem(4 bytes @ 0x00000004) -- CPU_WriteMem(4 bytes @ 0xE000EDF8)
 -- CPU_WriteMem(4 bytes @ 0xE000EDF4) -- CPU_WriteMem(4 bytes @ 0xE0002000) (0333ms, 0391ms total)
T2930 000:393 JLINK_ReadReg(R15)  returns 0x1A000042 (0000ms, 0391ms total)
T2930 000:394 JLINK_ReadReg(XPSR)  returns 0x41000000 (0000ms, 0392ms total)
T2930 000:394 JLINK_Halt()  returns 0x00 (0000ms, 0392ms total)
T2930 000:394 JLINK_IsHalted()  returns TRUE (0000ms, 0392ms total)
T2930 000:394 JLINK_ReadMemU32(0xE000EDF0, 0x0001 Items, ...) -- CPU_ReadMem(4 bytes @ 0xE000EDF0) -- Data:  03 00 03 00  returns 0x01 (0000ms, 0392ms total)
T2930 000:394 JLINK_WriteU32(0xE000EDF0, 0xA05F0003) -- CPU_WriteMem(4 bytes @ 0xE000EDF0)  returns 0x00 (0001ms, 0393ms total)
T2930 000:395 JLINK_WriteU32(0xE000EDFC, 0x01000000) -- CPU_WriteMem(4 bytes @ 0xE000EDFC)  returns 0x00 (0001ms, 0394ms total)
T2930 000:396 JLINK_GetHWStatus(...)  returns 0x00 (0000ms, 0394ms total)
T2930 000:396 JLINK_GetNumBPUnits(Type = 0xFFFFFF00)  returns 0x06 (0000ms, 0394ms total)
T2930 000:396 JLINK_GetNumBPUnits(Type = 0xF0)  returns 0x2000 (0000ms, 0394ms total)
T2930 000:396 JLINK_GetNumWPUnits()  returns 0x04 (0000ms, 0394ms total)
T2930 000:396 JLINK_GetSpeed()  returns 0x3E8 (0000ms, 0394ms total)
T2930 000:397 JLINK_ReadMemU32(0xE000E004, 0x0001 Items, ...) -- CPU_ReadMem(4 bytes @ 0xE000E004) -- Data:  01 00 00 00  returns 0x01 (0000ms, 0394ms total)
T2930 000:397 JLINK_ReadMemU32(0xE000E004, 0x0001 Items, ...) -- CPU_ReadMem(4 bytes @ 0xE000E004) -- Data:  01 00 00 00  returns 0x01 (0001ms, 0395ms total)
T2930 000:398 JLINK_WriteMem(0xE0001000, 0x001C Bytes, ...) -- Data:  01 00 00 00 00 00 00 00 00 00 00 00 00 00 00 00 ... -- CPU_WriteMem(28 bytes @ 0xE0001000)  returns 0x1C (0001ms, 0396ms total)
T2930 000:399 JLINK_ReadMem (0xE0001000, 0x001C Bytes, ...) -- CPU_ReadMem(28 bytes @ 0xE0001000) -- Data:  01 00 00 40 00 00 00 00 00 00 00 00 00 00 00 00 ...  returns 0x00 (0001ms, 0397ms total)
T2930 000:400 JLINK_ReadReg(R15)  returns 0x1A000042 (0000ms, 0397ms total)
T2930 000:400 JLINK_ReadReg(XPSR)  returns 0x41000000 (0000ms, 0397ms total)
T2930 000:400 JLINK_WriteU32(0xE0041FB0, 0xC5ACCE55) -- CPU_WriteMem(4 bytes @ 0xE0041FB0)  returns 0x00 (0001ms, 0398ms total)
T2930 000:401 JLINK_ReadMemU32(0xE0041000, 0x0001 Items, ...) -- CPU_ReadMem(4 bytes @ 0xE0041000) -- Data:  11 04 00 00  returns 0x01 (0001ms, 0399ms total)
T2930 000:402 JLINK_WriteU32(0xE0041000, 0x00000410) -- CPU_WriteMem(4 bytes @ 0xE0041000)  returns 0x00 (0000ms, 0399ms total)
T2930 000:403 JLINK_SWO_Control(JLINKARM_SWO_CMD_GET_SPEED_INFO, ...)  returns 0x00 (0001ms, 0400ms total)
T2930 000:404 JLINK_SWO_Control(JLINKARM_SWO_CMD_STOP, ...)  returns 0x00 (0000ms, 0400ms total)
T2930 000:404 JLINK_SWO_Control(JLINKARM_SWO_CMD_START, ...) -- UART -- 2000000bps  returns 0x00 (0001ms, 0401ms total)
T2930 000:405 JLINK_WriteU32(0xE0040004, 0x00000001) -- CPU_WriteMem(4 bytes @ 0xE0040004)  returns 0x00 (0001ms, 0402ms total)
T2930 000:407 JLINK_WriteU32(0xE0040010, 0x00000004) -- CPU_WriteMem(4 bytes @ 0xE0040010)  returns 0x00 (0000ms, 0402ms total)
T2930 000:407 JLINK_WriteU32(0xE00400F0, 0x00000002) -- CPU_WriteMem(4 bytes @ 0xE00400F0)  returns 0x00 (0001ms, 0403ms total)
T2930 000:408 JLINK_WriteU32(0xE0040304, 0x00000000) -- CPU_WriteMem(4 bytes @ 0xE0040304)  returns 0x00 (0000ms, 0403ms total)
T2930 000:408 JLINK_WriteU32(0xE0000FB0, 0xC5ACCE55) -- CPU_WriteMem(4 bytes @ 0xE0000FB0)  returns 0x00 (0001ms, 0404ms total)
T2930 000:409 JLINK_WriteU32(0xE0000E80, 0x0001000D) -- CPU_WriteMem(4 bytes @ 0xE0000E80)  returns 0x00 (0001ms, 0405ms total)
T2930 000:410 JLINK_WriteU32(0xE0000E00, 0xFFFFFFFF) -- CPU_WriteMem(4 bytes @ 0xE0000E00)  returns 0x00 (0001ms, 0406ms total)
T2930 000:411 JLINK_WriteU32(0xE0000E40, 0x00000008) -- CPU_WriteMem(4 bytes @ 0xE0000E40)  returns 0x00 (0000ms, 0406ms total)
T2930 000:411 JLINK_WriteU32(0xE0001000, 0x0001061F) -- CPU_WriteMem(4 bytes @ 0xE0001000)  returns 0x00 (0001ms, 0407ms total)
T2930 000:432 JLINK_ReadMem (0x1A000000, 0x00C4 Bytes, ...) -- CPU_ReadMem(196 bytes @ 0x1A000000) -- Data:  00 04 00 00 43 00 00 1A 95 00 00 1A 97 00 00 1A ...  returns 0x00 (0004ms, 0411ms total)
T2930 000:488 JLINK_SetResetType(JLINKARM_RESET_TYPE_NORMAL)  returns JLINKARM_RESET_TYPE_NORMAL (0000ms, 0411ms total)
T2930 000:488 JLINK_Reset() -- CPU_ReadMem(64 bytes @ 0x10000000) -- CPU_ReadMem(64 bytes @ 0x10080000) -- CPU_ReadMem(4096 bytes @ 0x10089000) -- CPU_WriteMem(4 bytes @ 0x40043100) -- CPU_WriteMem(4 bytes @ 0x4004312C) -- CPU_ReadMem(4 bytes @ 0xE000EDFC) -- CPU_ReadMem(4 bytes @ 0xE0001020) -- CPU_ReadMem(4 bytes @ 0xE0001024) -- CPU_ReadMem(4 bytes @ 0xE0001028) -- CPU_WriteMem(4 bytes @ 0xE0001020) -- CPU_WriteMem(4 bytes @ 0xE0001024) -- CPU_WriteMem(4 bytes @ 0xE0001028)
 -- CPU_ReadMem(8192 bytes @ 0x10400000) -- CPU_WriteMem(4 bytes @ 0xE000ED0C) -- CPU_WriteMem(4 bytes @ 0xE0001020) -- CPU_WriteMem(4 bytes @ 0xE0001024) -- CPU_WriteMem(4 bytes @ 0xE0001028) -- CPU_WriteMem(64 bytes @ 0x10000000) -- CPU_WriteMem(64 bytes @ 0x10080000) -- CPU_WriteMem(4096 bytes @ 0x10089000) -- CPU_ReadMem(4 bytes @ 0x00000000) -- CPU_WriteMem(4 bytes @ 0xE000EDF8) -- CPU_WriteMem(4 bytes @ 0xE000EDF4) -- CPU_ReadMem(4 bytes @ 0x00000004) -- CPU_WriteMem(4 bytes @ 0xE000EDF8)
 -- CPU_WriteMem(4 bytes @ 0xE000EDF4) -- CPU_WriteMem(4 bytes @ 0xE0002000) (0329ms, 0740ms total)
T2930 000:817 JLINK_WriteU32(0xE000EDFC, 0x01000000) -- CPU_WriteMem(4 bytes @ 0xE000EDFC)  returns 0x00 (0001ms, 0741ms total)
T2930 000:818 JLINK_ReadReg(R15)  returns 0x1A000042 (0000ms, 0741ms total)
T2930 000:818 JLINK_ReadReg(XPSR)  returns 0x41000000 (0000ms, 0741ms total)
T2930 000:823 JLINK_ReadMemU32(0xE0001004, 0x0001 Items, ...) -- CPU_ReadMem(4 bytes @ 0xE0001004) -- Data:  F2 10 00 00  returns 0x01 (0001ms, 0742ms total)
T2930 000:824 JLINK_ReadMem (0x1A000042, 0x0002 Bytes, ...) -- CPU_ReadMem(2 bytes @ 0x1A000042) -- Data:  4F F0  returns 0x00 (0001ms, 0743ms total)
T2930 000:825 JLINK_ReadMem (0x1A000044, 0x003C Bytes, ...) -- CPU_ReadMem(60 bytes @ 0x1A000044) -- Data:  FF 31 01 60 18 48 4F F0 FF 31 01 60 17 48 4F F0 ...  returns 0x00 (0001ms, 0744ms total)
T2930 000:848 JLINK_WriteU32(0xE0001008, 0x00000000) -- CPU_WriteMem(4 bytes @ 0xE0001008)  returns 0x00 (0001ms, 0745ms total)
T2930 000:849 JLINK_WriteU32(0xE000100C, 0x00000000) -- CPU_WriteMem(4 bytes @ 0xE000100C)  returns 0x00 (0000ms, 0745ms total)
T2930 000:850 JLINK_WriteU32(0xE0001010, 0x00000000) -- CPU_WriteMem(4 bytes @ 0xE0001010)  returns 0x00 (0000ms, 0745ms total)
T2930 000:850 JLINK_WriteU32(0xE0001014, 0x00000000) -- CPU_WriteMem(4 bytes @ 0xE0001014)  returns 0x00 (0002ms, 0747ms total)
T2930 000:852 JLINK_WriteU32(0xE0001018, 0x00000000) -- CPU_WriteMem(4 bytes @ 0xE0001018)  returns 0x00 (0000ms, 0747ms total)
T2930 000:895 JLINK_ReadMem (0x400F4000, 0x0002 Bytes, ...) -- CPU_ReadMem(2 bytes @ 0x400F4000) -- Data:  00 00  returns 0x00 (0001ms, 0748ms total)
T2930 000:896 JLINK_ReadMem (0x400F4001, 0x0002 Bytes, ...) -- CPU_ReadMem(2 bytes @ 0x400F4001) -- Data:  00 00  returns 0x00 (0001ms, 0749ms total)
T2930 000:897 JLINK_ReadMem (0x400F4002, 0x0002 Bytes, ...) -- CPU_ReadMem(2 bytes @ 0x400F4002) -- Data:  00 00  returns 0x00 (0001ms, 0750ms total)
T2930 000:898 JLINK_ReadMem (0x400F4003, 0x0002 Bytes, ...) -- CPU_ReadMem(2 bytes @ 0x400F4003) -- Data:  00 00  returns 0x00 (0001ms, 0751ms total)
T2930 000:899 JLINK_ReadMem (0x400F4004, 0x0002 Bytes, ...) -- CPU_ReadMem(2 bytes @ 0x400F4004) -- Data:  00 00  returns 0x00 (0001ms, 0752ms total)
T2930 000:900 JLINK_ReadMem (0x400F4005, 0x0002 Bytes, ...) -- CPU_ReadMem(2 bytes @ 0x400F4005) -- Data:  00 00  returns 0x00 (0001ms, 0753ms total)
T2930 000:901 JLINK_ReadMem (0x400F4006, 0x0002 Bytes, ...) -- CPU_ReadMem(2 bytes @ 0x400F4006) -- Data:  00 00  returns 0x00 (0000ms, 0753ms total)
T2930 000:901 JLINK_ReadMem (0x400F4007, 0x0002 Bytes, ...) -- CPU_ReadMem(2 bytes @ 0x400F4007) -- Data:  00 00  returns 0x00 (0001ms, 0754ms total)
T2930 000:902 JLINK_ReadMem (0x400F4008, 0x0002 Bytes, ...) -- CPU_ReadMem(2 bytes @ 0x400F4008) -- Data:  00 00  returns 0x00 (0001ms, 0755ms total)
T2930 000:903 JLINK_ReadMem (0x400F4009, 0x0002 Bytes, ...) -- CPU_ReadMem(2 bytes @ 0x400F4009) -- Data:  00 00  returns 0x00 (0001ms, 0756ms total)
T2930 000:904 JLINK_ReadMem (0x400F400A, 0x0002 Bytes, ...) -- CPU_ReadMem(2 bytes @ 0x400F400A) -- Data:  00 00  returns 0x00 (0001ms, 0757ms total)
T2930 000:905 JLINK_ReadMem (0x400F400B, 0x0002 Bytes, ...) -- CPU_ReadMem(2 bytes @ 0x400F400B) -- Data:  00 00  returns 0x00 (0000ms, 0757ms total)
T2930 000:905 JLINK_ReadMem (0x400F400C, 0x0002 Bytes, ...) -- CPU_ReadMem(2 bytes @ 0x400F400C) -- Data:  00 00  returns 0x00 (0001ms, 0758ms total)
T2930 000:906 JLINK_ReadMem (0x400F400D, 0x0002 Bytes, ...) -- CPU_ReadMem(2 bytes @ 0x400F400D) -- Data:  00 00  returns 0x00 (0001ms, 0759ms total)
T2930 000:907 JLINK_ReadMem (0x400F400E, 0x0002 Bytes, ...) -- CPU_ReadMem(2 bytes @ 0x400F400E) -- Data:  00 00  returns 0x00 (0001ms, 0760ms total)
T2930 000:908 JLINK_ReadMem (0x400F400F, 0x0002 Bytes, ...) -- CPU_ReadMem(2 bytes @ 0x400F400F) -- Data:  00 00  returns 0x00 (0000ms, 0760ms total)
T2930 000:908 JLINK_ReadMem (0x400F4010, 0x0002 Bytes, ...) -- CPU_ReadMem(2 bytes @ 0x400F4010) -- Data:  00 00  returns 0x00 (0001ms, 0761ms total)
T2930 000:909 JLINK_ReadMem (0x400F4011, 0x0002 Bytes, ...) -- CPU_ReadMem(2 bytes @ 0x400F4011) -- Data:  00 00  returns 0x00 (0001ms, 0762ms total)
T2930 000:911 JLINK_ReadMem (0x400F4012, 0x0002 Bytes, ...) -- CPU_ReadMem(2 bytes @ 0x400F4012) -- Data:  00 00  returns 0x00 (0000ms, 0762ms total)
T2930 000:911 JLINK_ReadMem (0x400F4013, 0x0002 Bytes, ...) -- CPU_ReadMem(2 bytes @ 0x400F4013) -- Data:  00 00  returns 0x00 (0001ms, 0763ms total)
T2930 000:912 JLINK_ReadMem (0x400F4014, 0x0002 Bytes, ...) -- CPU_ReadMem(2 bytes @ 0x400F4014) -- Data:  00 00  returns 0x00 (0001ms, 0764ms total)
T2930 000:913 JLINK_ReadMem (0x400F4015, 0x0002 Bytes, ...) -- CPU_ReadMem(2 bytes @ 0x400F4015) -- Data:  00 00  returns 0x00 (0001ms, 0765ms total)
T2930 000:914 JLINK_ReadMem (0x400F4016, 0x0002 Bytes, ...) -- CPU_ReadMem(2 bytes @ 0x400F4016) -- Data:  00 00  returns 0x00 (0000ms, 0765ms total)
T2930 000:914 JLINK_ReadMem (0x400F4017, 0x0002 Bytes, ...) -- CPU_ReadMem(2 bytes @ 0x400F4017) -- Data:  00 00  returns 0x00 (0001ms, 0766ms total)
T2930 000:915 JLINK_ReadMem (0x400F4018, 0x0002 Bytes, ...) -- CPU_ReadMem(2 bytes @ 0x400F4018) -- Data:  00 00  returns 0x00 (0001ms, 0767ms total)
T2930 000:916 JLINK_ReadMem (0x400F4019, 0x0002 Bytes, ...) -- CPU_ReadMem(2 bytes @ 0x400F4019) -- Data:  00 00  returns 0x00 (0001ms, 0768ms total)
T2930 000:917 JLINK_ReadMem (0x400F401A, 0x0002 Bytes, ...) -- CPU_ReadMem(2 bytes @ 0x400F401A) -- Data:  00 00  returns 0x00 (0001ms, 0769ms total)
T2930 000:918 JLINK_ReadMem (0x400F401B, 0x0002 Bytes, ...) -- CPU_ReadMem(2 bytes @ 0x400F401B) -- Data:  00 00  returns 0x00 (0001ms, 0770ms total)
T2930 000:919 JLINK_ReadMem (0x400F401C, 0x0002 Bytes, ...) -- CPU_ReadMem(2 bytes @ 0x400F401C) -- Data:  00 00  returns 0x00 (0000ms, 0770ms total)
T2930 000:919 JLINK_ReadMem (0x400F401D, 0x0002 Bytes, ...) -- CPU_ReadMem(2 bytes @ 0x400F401D) -- Data:  00 00  returns 0x00 (0001ms, 0771ms total)
T2930 000:920 JLINK_ReadMem (0x400F401E, 0x0002 Bytes, ...) -- CPU_ReadMem(2 bytes @ 0x400F401E) -- Data:  00 00  returns 0x00 (0001ms, 0772ms total)
T2930 000:921 JLINK_ReadMem (0x400F401F, 0x0002 Bytes, ...) -- CPU_ReadMem(2 bytes @ 0x400F401F) -- Data:  00 00  returns 0x00 (0001ms, 0773ms total)
T2930 000:922 JLINK_ReadMem (0x400F4020, 0x0002 Bytes, ...) -- CPU_ReadMem(2 bytes @ 0x400F4020) -- Data:  00 00  returns 0x00 (0001ms, 0774ms total)
T2930 000:923 JLINK_ReadMem (0x400F4021, 0x0002 Bytes, ...) -- CPU_ReadMem(2 bytes @ 0x400F4021) -- Data:  00 00  returns 0x00 (0000ms, 0774ms total)
T2930 000:923 JLINK_ReadMem (0x400F4022, 0x0002 Bytes, ...) -- CPU_ReadMem(2 bytes @ 0x400F4022) -- Data:  00 00  returns 0x00 (0001ms, 0775ms total)
T2930 000:924 JLINK_ReadMem (0x400F4023, 0x0002 Bytes, ...) -- CPU_ReadMem(2 bytes @ 0x400F4023) -- Data:  00 00  returns 0x00 (0001ms, 0776ms total)
T2930 000:925 JLINK_ReadMem (0x400F4024, 0x0002 Bytes, ...) -- CPU_ReadMem(2 bytes @ 0x400F4024) -- Data:  00 00  returns 0x00 (0001ms, 0777ms total)
T2930 000:926 JLINK_ReadMem (0x400F4025, 0x0002 Bytes, ...) -- CPU_ReadMem(2 bytes @ 0x400F4025) -- Data:  00 00  returns 0x00 (0001ms, 0778ms total)
T2930 000:927 JLINK_ReadMem (0x400F4026, 0x0002 Bytes, ...) -- CPU_ReadMem(2 bytes @ 0x400F4026) -- Data:  00 00  returns 0x00 (0001ms, 0779ms total)
T2930 000:928 JLINK_ReadMem (0x400F4027, 0x0002 Bytes, ...) -- CPU_ReadMem(2 bytes @ 0x400F4027) -- Data:  00 00  returns 0x00 (0000ms, 0779ms total)
T2930 000:929 JLINK_ReadMem (0x400F4028, 0x0002 Bytes, ...) -- CPU_ReadMem(2 bytes @ 0x400F4028) -- Data:  00 00  returns 0x00 (0000ms, 0780ms total)
T2930 000:929 JLINK_ReadMem (0x400F4029, 0x0002 Bytes, ...) -- CPU_ReadMem(2 bytes @ 0x400F4029) -- Data:  00 00  returns 0x00 (0001ms, 0781ms total)
T2930 000:930 JLINK_ReadMem (0x400F402A, 0x0002 Bytes, ...) -- CPU_ReadMem(2 bytes @ 0x400F402A) -- Data:  00 00  returns 0x00 (0001ms, 0782ms total)
T2930 000:931 JLINK_ReadMem (0x400F402B, 0x0002 Bytes, ...) -- CPU_ReadMem(2 bytes @ 0x400F402B) -- Data:  00 00  returns 0x00 (0001ms, 0783ms total)
T2930 000:932 JLINK_ReadMem (0x400F402C, 0x0002 Bytes, ...) -- CPU_ReadMem(2 bytes @ 0x400F402C) -- Data:  00 00  returns 0x00 (0001ms, 0784ms total)
T2930 000:933 JLINK_ReadMem (0x400F402D, 0x0002 Bytes, ...) -- CPU_ReadMem(2 bytes @ 0x400F402D) -- Data:  00 00  returns 0x00 (0001ms, 0785ms total)
T2930 000:934 JLINK_ReadMem (0x400F402E, 0x0002 Bytes, ...) -- CPU_ReadMem(2 bytes @ 0x400F402E) -- Data:  00 00  returns 0x00 (0000ms, 0785ms total)
T2930 000:934 JLINK_ReadMem (0x400F402F, 0x0002 Bytes, ...) -- CPU_ReadMem(2 bytes @ 0x400F402F) -- Data:  00 00  returns 0x00 (0001ms, 0786ms total)
T2930 000:935 JLINK_ReadMem (0x400F4030, 0x0002 Bytes, ...) -- CPU_ReadMem(2 bytes @ 0x400F4030) -- Data:  00 00  returns 0x00 (0001ms, 0787ms total)
T2930 000:936 JLINK_ReadMem (0x400F4031, 0x0002 Bytes, ...) -- CPU_ReadMem(2 bytes @ 0x400F4031) -- Data:  00 00  returns 0x00 (0001ms, 0788ms total)
T2930 000:937 JLINK_ReadMem (0x400F4032, 0x0002 Bytes, ...) -- CPU_ReadMem(2 bytes @ 0x400F4032) -- Data:  00 00  returns 0x00 (0001ms, 0789ms total)
T2930 000:938 JLINK_ReadMem (0x400F4033, 0x0002 Bytes, ...) -- CPU_ReadMem(2 bytes @ 0x400F4033) -- Data:  00 00  returns 0x00 (0000ms, 0789ms total)
T2930 000:938 JLINK_ReadMem (0x400F4034, 0x0002 Bytes, ...) -- CPU_ReadMem(2 bytes @ 0x400F4034) -- Data:  00 00  returns 0x00 (0001ms, 0790ms total)
T2930 000:939 JLINK_ReadMem (0x400F4035, 0x0002 Bytes, ...) -- CPU_ReadMem(2 bytes @ 0x400F4035) -- Data:  00 00  returns 0x00 (0001ms, 0791ms total)
T2930 000:940 JLINK_ReadMem (0x400F4036, 0x0002 Bytes, ...) -- CPU_ReadMem(2 bytes @ 0x400F4036) -- Data:  00 00  returns 0x00 (0001ms, 0792ms total)
T2930 000:941 JLINK_ReadMem (0x400F4037, 0x0002 Bytes, ...) -- CPU_ReadMem(2 bytes @ 0x400F4037) -- Data:  00 00  returns 0x00 (0001ms, 0793ms total)
T2930 000:942 JLINK_ReadMem (0x400F4038, 0x0002 Bytes, ...) -- CPU_ReadMem(2 bytes @ 0x400F4038) -- Data:  00 00  returns 0x00 (0001ms, 0794ms total)
T2930 000:943 JLINK_ReadMem (0x400F4039, 0x0002 Bytes, ...) -- CPU_ReadMem(2 bytes @ 0x400F4039) -- Data:  00 00  returns 0x00 (0001ms, 0795ms total)
T2930 000:944 JLINK_ReadMem (0x400F403A, 0x0002 Bytes, ...) -- CPU_ReadMem(2 bytes @ 0x400F403A) -- Data:  00 00  returns 0x00 (0000ms, 0795ms total)
T2930 000:944 JLINK_ReadMem (0x400F403B, 0x0002 Bytes, ...) -- CPU_ReadMem(2 bytes @ 0x400F403B) -- Data:  00 00  returns 0x00 (0001ms, 0796ms total)
T2930 000:945 JLINK_ReadMem (0x400F403C, 0x0002 Bytes, ...) -- CPU_ReadMem(2 bytes @ 0x400F403C) -- Data:  00 00  returns 0x00 (0001ms, 0797ms total)
T2930 000:946 JLINK_ReadMem (0x400F403D, 0x0002 Bytes, ...) -- CPU_ReadMem(2 bytes @ 0x400F403D) -- Data:  00 00  returns 0x00 (0001ms, 0798ms total)
T2930 000:947 JLINK_ReadMem (0x400F403E, 0x0002 Bytes, ...) -- CPU_ReadMem(2 bytes @ 0x400F403E) -- Data:  00 00  returns 0x00 (0001ms, 0799ms total)
T2930 000:948 JLINK_ReadMem (0x400F403F, 0x0002 Bytes, ...) -- CPU_ReadMem(2 bytes @ 0x400F403F) -- Data:  00 00  returns 0x00 (0001ms, 0800ms total)
T2930 000:949 JLINK_ReadMem (0x400F4040, 0x0002 Bytes, ...) -- CPU_ReadMem(2 bytes @ 0x400F4040) -- Data:  00 00  returns 0x00 (0000ms, 0800ms total)
T2930 000:949 JLINK_ReadMem (0x400F4041, 0x0002 Bytes, ...) -- CPU_ReadMem(2 bytes @ 0x400F4041) -- Data:  00 00  returns 0x00 (0001ms, 0801ms total)
T2930 000:950 JLINK_ReadMem (0x400F4042, 0x0002 Bytes, ...) -- CPU_ReadMem(2 bytes @ 0x400F4042) -- Data:  00 00  returns 0x00 (0001ms, 0802ms total)
T2930 000:951 JLINK_ReadMem (0x400F4043, 0x0002 Bytes, ...) -- CPU_ReadMem(2 bytes @ 0x400F4043) -- Data:  00 00  returns 0x00 (0001ms, 0803ms total)
T2930 000:952 JLINK_ReadMem (0x400F4044, 0x0002 Bytes, ...) -- CPU_ReadMem(2 bytes @ 0x400F4044) -- Data:  00 00  returns 0x00 (0001ms, 0804ms total)
T2930 000:953 JLINK_ReadMem (0x400F4045, 0x0002 Bytes, ...) -- CPU_ReadMem(2 bytes @ 0x400F4045) -- Data:  00 00  returns 0x00 (0001ms, 0805ms total)
T2930 000:954 JLINK_ReadMem (0x400F4046, 0x0002 Bytes, ...) -- CPU_ReadMem(2 bytes @ 0x400F4046) -- Data:  00 00  returns 0x00 (0000ms, 0805ms total)
T2930 000:954 JLINK_ReadMem (0x400F4047, 0x0002 Bytes, ...) -- CPU_ReadMem(2 bytes @ 0x400F4047) -- Data:  00 00  returns 0x00 (0001ms, 0806ms total)
T2930 000:955 JLINK_ReadMem (0x400F4048, 0x0002 Bytes, ...) -- CPU_ReadMem(2 bytes @ 0x400F4048) -- Data:  00 00  returns 0x00 (0001ms, 0807ms total)
T2930 000:956 JLINK_ReadMem (0x400F4049, 0x0002 Bytes, ...) -- CPU_ReadMem(2 bytes @ 0x400F4049) -- Data:  00 00  returns 0x00 (0002ms, 0809ms total)
T2930 000:958 JLINK_ReadMem (0x400F404A, 0x0002 Bytes, ...) -- CPU_ReadMem(2 bytes @ 0x400F404A) -- Data:  00 00  returns 0x00 (0000ms, 0809ms total)
T2930 000:958 JLINK_ReadMem (0x400F404B, 0x0002 Bytes, ...) -- CPU_ReadMem(2 bytes @ 0x400F404B) -- Data:  00 00  returns 0x00 (0001ms, 0810ms total)
T2930 000:959 JLINK_ReadMem (0x400F404C, 0x0002 Bytes, ...) -- CPU_ReadMem(2 bytes @ 0x400F404C) -- Data:  00 00  returns 0x00 (0001ms, 0811ms total)
T2930 000:960 JLINK_ReadMem (0x400F404D, 0x0002 Bytes, ...) -- CPU_ReadMem(2 bytes @ 0x400F404D) -- Data:  00 00  returns 0x00 (0001ms, 0812ms total)
T2930 000:961 JLINK_ReadMem (0x400F404E, 0x0002 Bytes, ...) -- CPU_ReadMem(2 bytes @ 0x400F404E) -- Data:  00 00  returns 0x00 (0000ms, 0812ms total)
T2930 000:961 JLINK_ReadMem (0x400F404F, 0x0002 Bytes, ...) -- CPU_ReadMem(2 bytes @ 0x400F404F) -- Data:  00 00  returns 0x00 (0001ms, 0813ms total)
T2930 000:962 JLINK_ReadMem (0x400F4050, 0x0002 Bytes, ...) -- CPU_ReadMem(2 bytes @ 0x400F4050) -- Data:  00 00  returns 0x00 (0001ms, 0814ms total)
T2930 000:963 JLINK_ReadMem (0x400F4051, 0x0002 Bytes, ...) -- CPU_ReadMem(2 bytes @ 0x400F4051) -- Data:  00 00  returns 0x00 (0001ms, 0815ms total)
T2930 000:964 JLINK_ReadMem (0x400F4052, 0x0002 Bytes, ...) -- CPU_ReadMem(2 bytes @ 0x400F4052) -- Data:  00 00  returns 0x00 (0001ms, 0816ms total)
T2930 000:965 JLINK_ReadMem (0x400F4053, 0x0002 Bytes, ...) -- CPU_ReadMem(2 bytes @ 0x400F4053) -- Data:  00 00  returns 0x00 (0001ms, 0817ms total)
T2930 000:966 JLINK_ReadMem (0x400F4054, 0x0002 Bytes, ...) -- CPU_ReadMem(2 bytes @ 0x400F4054) -- Data:  00 00  returns 0x00 (0000ms, 0817ms total)
T2930 000:966 JLINK_ReadMem (0x400F4055, 0x0002 Bytes, ...) -- CPU_ReadMem(2 bytes @ 0x400F4055) -- Data:  00 00  returns 0x00 (0001ms, 0818ms total)
T2930 000:967 JLINK_ReadMem (0x400F4056, 0x0002 Bytes, ...) -- CPU_ReadMem(2 bytes @ 0x400F4056) -- Data:  00 00  returns 0x00 (0001ms, 0819ms total)
T2930 000:968 JLINK_ReadMem (0x400F4057, 0x0002 Bytes, ...) -- CPU_ReadMem(2 bytes @ 0x400F4057) -- Data:  00 00  returns 0x00 (0001ms, 0820ms total)
T2930 000:969 JLINK_ReadMem (0x400F4058, 0x0002 Bytes, ...) -- CPU_ReadMem(2 bytes @ 0x400F4058) -- Data:  00 00  returns 0x00 (0001ms, 0821ms total)
T2930 000:970 JLINK_ReadMem (0x400F4059, 0x0002 Bytes, ...) -- CPU_ReadMem(2 bytes @ 0x400F4059) -- Data:  00 00  returns 0x00 (0001ms, 0822ms total)
T2930 000:971 JLINK_ReadMem (0x400F405A, 0x0002 Bytes, ...) -- CPU_ReadMem(2 bytes @ 0x400F405A) -- Data:  00 00  returns 0x00 (0001ms, 0823ms total)
T2930 000:972 JLINK_ReadMem (0x400F405B, 0x0002 Bytes, ...) -- CPU_ReadMem(2 bytes @ 0x400F405B) -- Data:  00 00  returns 0x00 (0001ms, 0824ms total)
T2930 000:973 JLINK_ReadMem (0x400F405C, 0x0002 Bytes, ...) -- CPU_ReadMem(2 bytes @ 0x400F405C) -- Data:  00 00  returns 0x00 (0000ms, 0824ms total)
T2930 000:973 JLINK_ReadMem (0x400F405D, 0x0002 Bytes, ...) -- CPU_ReadMem(2 bytes @ 0x400F405D) -- Data:  00 00  returns 0x00 (0001ms, 0825ms total)
T2930 000:975 JLINK_ReadMem (0x400F405E, 0x0002 Bytes, ...) -- CPU_ReadMem(2 bytes @ 0x400F405E) -- Data:  00 00  returns 0x00 (0000ms, 0825ms total)
T2930 000:975 JLINK_ReadMem (0x400F405F, 0x0002 Bytes, ...) -- CPU_ReadMem(2 bytes @ 0x400F405F) -- Data:  00 00  returns 0x00 (0001ms, 0826ms total)
T2930 000:976 JLINK_ReadMem (0x400F4060, 0x0002 Bytes, ...) -- CPU_ReadMem(2 bytes @ 0x400F4060) -- Data:  00 00  returns 0x00 (0001ms, 0827ms total)
T2930 000:977 JLINK_ReadMem (0x400F4061, 0x0002 Bytes, ...) -- CPU_ReadMem(2 bytes @ 0x400F4061) -- Data:  00 00  returns 0x00 (0001ms, 0828ms total)
T2930 000:978 JLINK_ReadMem (0x400F4062, 0x0002 Bytes, ...) -- CPU_ReadMem(2 bytes @ 0x400F4062) -- Data:  00 00  returns 0x00 (0000ms, 0828ms total)
T2930 000:978 JLINK_ReadMem (0x400F4063, 0x0002 Bytes, ...) -- CPU_ReadMem(2 bytes @ 0x400F4063) -- Data:  00 00  returns 0x00 (0001ms, 0829ms total)
T2930 000:979 JLINK_ReadMem (0x400F4064, 0x0002 Bytes, ...) -- CPU_ReadMem(2 bytes @ 0x400F4064) -- Data:  00 00  returns 0x00 (0001ms, 0830ms total)
T2930 000:980 JLINK_ReadMem (0x400F4065, 0x0002 Bytes, ...) -- CPU_ReadMem(2 bytes @ 0x400F4065) -- Data:  00 00  returns 0x00 (0001ms, 0831ms total)
T2930 000:981 JLINK_ReadMem (0x400F4066, 0x0002 Bytes, ...) -- CPU_ReadMem(2 bytes @ 0x400F4066) -- Data:  00 00  returns 0x00 (0001ms, 0832ms total)
T2930 000:982 JLINK_ReadMem (0x400F4067, 0x0002 Bytes, ...) -- CPU_ReadMem(2 bytes @ 0x400F4067) -- Data:  00 00  returns 0x00 (0001ms, 0833ms total)
T2930 000:983 JLINK_ReadMem (0x400F4068, 0x0002 Bytes, ...) -- CPU_ReadMem(2 bytes @ 0x400F4068) -- Data:  00 00  returns 0x00 (0001ms, 0834ms total)
T2930 000:984 JLINK_ReadMem (0x400F4069, 0x0002 Bytes, ...) -- CPU_ReadMem(2 bytes @ 0x400F4069) -- Data:  00 00  returns 0x00 (0000ms, 0834ms total)
T2930 000:984 JLINK_ReadMem (0x400F406A, 0x0002 Bytes, ...) -- CPU_ReadMem(2 bytes @ 0x400F406A) -- Data:  00 00  returns 0x00 (0001ms, 0835ms total)
T2930 000:985 JLINK_ReadMem (0x400F406B, 0x0002 Bytes, ...) -- CPU_ReadMem(2 bytes @ 0x400F406B) -- Data:  00 00  returns 0x00 (0001ms, 0836ms total)
T2930 000:986 JLINK_ReadMem (0x400F406C, 0x0002 Bytes, ...) -- CPU_ReadMem(2 bytes @ 0x400F406C) -- Data:  00 00  returns 0x00 (0001ms, 0837ms total)
T2930 000:987 JLINK_ReadMem (0x400F406D, 0x0002 Bytes, ...) -- CPU_ReadMem(2 bytes @ 0x400F406D) -- Data:  00 00  returns 0x00 (0001ms, 0838ms total)
T2930 000:988 JLINK_ReadMem (0x400F406E, 0x0002 Bytes, ...) -- CPU_ReadMem(2 bytes @ 0x400F406E) -- Data:  00 00  returns 0x00 (0001ms, 0839ms total)
T2930 000:989 JLINK_ReadMem (0x400F406F, 0x0002 Bytes, ...) -- CPU_ReadMem(2 bytes @ 0x400F406F) -- Data:  00 00  returns 0x00 (0001ms, 0840ms total)
T2930 000:990 JLINK_ReadMem (0x400F4070, 0x0002 Bytes, ...) -- CPU_ReadMem(2 bytes @ 0x400F4070) -- Data:  00 00  returns 0x00 (0000ms, 0840ms total)
T2930 000:990 JLINK_ReadMem (0x400F4071, 0x0002 Bytes, ...) -- CPU_ReadMem(2 bytes @ 0x400F4071) -- Data:  00 00  returns 0x00 (0001ms, 0841ms total)
T2930 000:991 JLINK_ReadMem (0x400F4072, 0x0002 Bytes, ...) -- CPU_ReadMem(2 bytes @ 0x400F4072) -- Data:  00 00  returns 0x00 (0001ms, 0842ms total)
T2930 000:992 JLINK_ReadMem (0x400F4073, 0x0002 Bytes, ...) -- CPU_ReadMem(2 bytes @ 0x400F4073) -- Data:  00 00  returns 0x00 (0001ms, 0843ms total)
T2930 000:993 JLINK_ReadMem (0x400F4074, 0x0002 Bytes, ...) -- CPU_ReadMem(2 bytes @ 0x400F4074) -- Data:  00 00  returns 0x00 (0001ms, 0844ms total)
T2930 000:994 JLINK_ReadMem (0x400F4075, 0x0002 Bytes, ...) -- CPU_ReadMem(2 bytes @ 0x400F4075) -- Data:  00 00  returns 0x00 (0001ms, 0845ms total)
T2930 000:995 JLINK_ReadMem (0x400F4076, 0x0002 Bytes, ...) -- CPU_ReadMem(2 bytes @ 0x400F4076) -- Data:  00 00  returns 0x00 (0000ms, 0845ms total)
T2930 000:995 JLINK_ReadMem (0x400F4077, 0x0002 Bytes, ...) -- CPU_ReadMem(2 bytes @ 0x400F4077) -- Data:  00 00  returns 0x00 (0001ms, 0846ms total)
T2930 000:996 JLINK_ReadMem (0x400F4078, 0x0002 Bytes, ...) -- CPU_ReadMem(2 bytes @ 0x400F4078) -- Data:  00 00  returns 0x00 (0001ms, 0847ms total)
T2930 000:997 JLINK_ReadMem (0x400F4079, 0x0002 Bytes, ...) -- CPU_ReadMem(2 bytes @ 0x400F4079) -- Data:  00 00  returns 0x00 (0001ms, 0848ms total)
T2930 000:998 JLINK_ReadMem (0x400F407A, 0x0002 Bytes, ...) -- CPU_ReadMem(2 bytes @ 0x400F407A) -- Data:  00 00  returns 0x00 (0001ms, 0849ms total)
T2930 000:999 JLINK_ReadMem (0x400F407B, 0x0002 Bytes, ...) -- CPU_ReadMem(2 bytes @ 0x400F407B) -- Data:  00 00  returns 0x00 (0001ms, 0850ms total)
T2930 001:000 JLINK_ReadMem (0x400F407C, 0x0002 Bytes, ...) -- CPU_ReadMem(2 bytes @ 0x400F407C) -- Data:  00 00  returns 0x00 (0000ms, 0850ms total)
T2930 001:000 JLINK_ReadMem (0x400F407D, 0x0002 Bytes, ...) -- CPU_ReadMem(2 bytes @ 0x400F407D) -- Data:  00 00  returns 0x00 (0001ms, 0851ms total)
T2930 001:001 JLINK_ReadMem (0x400F407E, 0x0002 Bytes, ...) -- CPU_ReadMem(2 bytes @ 0x400F407E) -- Data:  00 00  returns 0x00 (0001ms, 0852ms total)
T2930 001:002 JLINK_ReadMem (0x400F407F, 0x0002 Bytes, ...) -- CPU_ReadMem(2 bytes @ 0x400F407F) -- Data:  00 00  returns 0x00 (0001ms, 0853ms total)
T2930 001:003 JLINK_ReadMem (0x400F4080, 0x0002 Bytes, ...) -- CPU_ReadMem(2 bytes @ 0x400F4080) -- Data:  00 00  returns 0x00 (0001ms, 0854ms total)
T2930 001:004 JLINK_ReadMem (0x400F4081, 0x0002 Bytes, ...) -- CPU_ReadMem(2 bytes @ 0x400F4081) -- Data:  00 00  returns 0x00 (0001ms, 0855ms total)
T2930 001:005 JLINK_ReadMem (0x400F4082, 0x0002 Bytes, ...) -- CPU_ReadMem(2 bytes @ 0x400F4082) -- Data:  00 00  returns 0x00 (0001ms, 0856ms total)
T2930 001:006 JLINK_ReadMem (0x400F4083, 0x0002 Bytes, ...) -- CPU_ReadMem(2 bytes @ 0x400F4083) -- Data:  00 00  returns 0x00 (0001ms, 0857ms total)
T2930 001:007 JLINK_ReadMem (0x400F4084, 0x0002 Bytes, ...) -- CPU_ReadMem(2 bytes @ 0x400F4084) -- Data:  00 00  returns 0x00 (0001ms, 0858ms total)
T2930 001:008 JLINK_ReadMem (0x400F4085, 0x0002 Bytes, ...) -- CPU_ReadMem(2 bytes @ 0x400F4085) -- Data:  00 00  returns 0x00 (0000ms, 0858ms total)
T2930 001:008 JLINK_ReadMem (0x400F4086, 0x0002 Bytes, ...) -- CPU_ReadMem(2 bytes @ 0x400F4086) -- Data:  00 00  returns 0x00 (0001ms, 0859ms total)
T2930 001:009 JLINK_ReadMem (0x400F4087, 0x0002 Bytes, ...) -- CPU_ReadMem(2 bytes @ 0x400F4087) -- Data:  00 00  returns 0x00 (0001ms, 0860ms total)
T2930 001:010 JLINK_ReadMem (0x400F4088, 0x0002 Bytes, ...) -- CPU_ReadMem(2 bytes @ 0x400F4088) -- Data:  00 00  returns 0x00 (0000ms, 0860ms total)
T2930 001:010 JLINK_ReadMem (0x400F4089, 0x0002 Bytes, ...) -- CPU_ReadMem(2 bytes @ 0x400F4089) -- Data:  00 00  returns 0x00 (0001ms, 0861ms total)
T2930 001:011 JLINK_ReadMem (0x400F408A, 0x0002 Bytes, ...) -- CPU_ReadMem(2 bytes @ 0x400F408A) -- Data:  00 00  returns 0x00 (0001ms, 0862ms total)
T2930 001:012 JLINK_ReadMem (0x400F408B, 0x0002 Bytes, ...) -- CPU_ReadMem(2 bytes @ 0x400F408B) -- Data:  00 00  returns 0x00 (0001ms, 0863ms total)
T2930 001:013 JLINK_ReadMem (0x400F408C, 0x0002 Bytes, ...) -- CPU_ReadMem(2 bytes @ 0x400F408C) -- Data:  00 00  returns 0x00 (0001ms, 0864ms total)
T2930 001:014 JLINK_ReadMem (0x400F408D, 0x0002 Bytes, ...) -- CPU_ReadMem(2 bytes @ 0x400F408D) -- Data:  00 00  returns 0x00 (0001ms, 0865ms total)
T2930 001:015 JLINK_ReadMem (0x400F408E, 0x0002 Bytes, ...) -- CPU_ReadMem(2 bytes @ 0x400F408E) -- Data:  00 00  returns 0x00 (0000ms, 0865ms total)
T2930 001:015 JLINK_ReadMem (0x400F408F, 0x0002 Bytes, ...) -- CPU_ReadMem(2 bytes @ 0x400F408F) -- Data:  00 00  returns 0x00 (0001ms, 0866ms total)
T2930 001:016 JLINK_ReadMem (0x400F4090, 0x0002 Bytes, ...) -- CPU_ReadMem(2 bytes @ 0x400F4090) -- Data:  00 00  returns 0x00 (0001ms, 0867ms total)
T2930 001:017 JLINK_ReadMem (0x400F4091, 0x0002 Bytes, ...) -- CPU_ReadMem(2 bytes @ 0x400F4091) -- Data:  00 00  returns 0x00 (0001ms, 0868ms total)
T2930 001:018 JLINK_ReadMem (0x400F4092, 0x0002 Bytes, ...) -- CPU_ReadMem(2 bytes @ 0x400F4092) -- Data:  00 00  returns 0x00 (0001ms, 0869ms total)
T2930 001:019 JLINK_ReadMem (0x400F4093, 0x0002 Bytes, ...) -- CPU_ReadMem(2 bytes @ 0x400F4093) -- Data:  00 00  returns 0x00 (0000ms, 0869ms total)
T2930 001:019 JLINK_ReadMem (0x400F4094, 0x0002 Bytes, ...) -- CPU_ReadMem(2 bytes @ 0x400F4094) -- Data:  00 00  returns 0x00 (0001ms, 0870ms total)
T2930 001:020 JLINK_ReadMem (0x400F4095, 0x0002 Bytes, ...) -- CPU_ReadMem(2 bytes @ 0x400F4095) -- Data:  00 00  returns 0x00 (0001ms, 0871ms total)
T2930 001:021 JLINK_ReadMem (0x400F4096, 0x0002 Bytes, ...) -- CPU_ReadMem(2 bytes @ 0x400F4096) -- Data:  00 00  returns 0x00 (0000ms, 0871ms total)
T2930 001:021 JLINK_ReadMem (0x400F4097, 0x0002 Bytes, ...) -- CPU_ReadMem(2 bytes @ 0x400F4097) -- Data:  00 00  returns 0x00 (0001ms, 0872ms total)
T2930 001:022 JLINK_ReadMem (0x400F4098, 0x0002 Bytes, ...) -- CPU_ReadMem(2 bytes @ 0x400F4098) -- Data:  00 00  returns 0x00 (0001ms, 0873ms total)
T2930 001:024 JLINK_ReadMem (0x400F4099, 0x0002 Bytes, ...) -- CPU_ReadMem(2 bytes @ 0x400F4099) -- Data:  00 00  returns 0x00 (0000ms, 0873ms total)
T2930 001:024 JLINK_ReadMem (0x400F409A, 0x0002 Bytes, ...) -- CPU_ReadMem(2 bytes @ 0x400F409A) -- Data:  00 00  returns 0x00 (0001ms, 0874ms total)
T2930 001:025 JLINK_ReadMem (0x400F409B, 0x0002 Bytes, ...) -- CPU_ReadMem(2 bytes @ 0x400F409B) -- Data:  00 00  returns 0x00 (0001ms, 0875ms total)
T2930 001:026 JLINK_ReadMem (0x400F409C, 0x0002 Bytes, ...) -- CPU_ReadMem(2 bytes @ 0x400F409C) -- Data:  00 00  returns 0x00 (0001ms, 0876ms total)
T2930 001:027 JLINK_ReadMem (0x400F409D, 0x0002 Bytes, ...) -- CPU_ReadMem(2 bytes @ 0x400F409D) -- Data:  00 00  returns 0x00 (0001ms, 0877ms total)
T2930 001:028 JLINK_ReadMem (0x400F409E, 0x0002 Bytes, ...) -- CPU_ReadMem(2 bytes @ 0x400F409E) -- Data:  00 00  returns 0x00 (0000ms, 0877ms total)
T2930 001:029 JLINK_ReadMem (0x400F409F, 0x0002 Bytes, ...) -- CPU_ReadMem(2 bytes @ 0x400F409F) -- Data:  00 00  returns 0x00 (0000ms, 0877ms total)
T2930 001:029 JLINK_ReadMem (0x400F40A0, 0x0002 Bytes, ...) -- CPU_ReadMem(2 bytes @ 0x400F40A0) -- Data:  00 00  returns 0x00 (0001ms, 0878ms total)
T2930 001:030 JLINK_ReadMem (0x400F40A1, 0x0002 Bytes, ...) -- CPU_ReadMem(2 bytes @ 0x400F40A1) -- Data:  00 00  returns 0x00 (0001ms, 0879ms total)
T2930 001:031 JLINK_ReadMem (0x400F40A2, 0x0002 Bytes, ...) -- CPU_ReadMem(2 bytes @ 0x400F40A2) -- Data:  00 00  returns 0x00 (0001ms, 0880ms total)
T2930 001:032 JLINK_ReadMem (0x400F40A3, 0x0002 Bytes, ...) -- CPU_ReadMem(2 bytes @ 0x400F40A3) -- Data:  00 00  returns 0x00 (0001ms, 0881ms total)
T2930 001:033 JLINK_ReadMem (0x400F40A4, 0x0002 Bytes, ...) -- CPU_ReadMem(2 bytes @ 0x400F40A4) -- Data:  00 00  returns 0x00 (0000ms, 0881ms total)
T2930 001:033 JLINK_ReadMem (0x400F40A5, 0x0002 Bytes, ...) -- CPU_ReadMem(2 bytes @ 0x400F40A5) -- Data:  00 00  returns 0x00 (0001ms, 0882ms total)
T2930 001:035 JLINK_ReadMem (0x400F40A6, 0x0002 Bytes, ...) -- CPU_ReadMem(2 bytes @ 0x400F40A6) -- Data:  00 00  returns 0x00 (0001ms, 0883ms total)
T2930 001:036 JLINK_ReadMem (0x400F40A7, 0x0002 Bytes, ...) -- CPU_ReadMem(2 bytes @ 0x400F40A7) -- Data:  00 00  returns 0x00 (0000ms, 0883ms total)
T2930 001:036 JLINK_ReadMem (0x400F40A8, 0x0002 Bytes, ...) -- CPU_ReadMem(2 bytes @ 0x400F40A8) -- Data:  00 00  returns 0x00 (0001ms, 0884ms total)
T2930 001:037 JLINK_ReadMem (0x400F40A9, 0x0002 Bytes, ...) -- CPU_ReadMem(2 bytes @ 0x400F40A9) -- Data:  00 00  returns 0x00 (0001ms, 0885ms total)
T2930 001:038 JLINK_ReadMem (0x400F40AA, 0x0002 Bytes, ...) -- CPU_ReadMem(2 bytes @ 0x400F40AA) -- Data:  00 00  returns 0x00 (0001ms, 0886ms total)
T2930 001:039 JLINK_ReadMem (0x400F40AB, 0x0002 Bytes, ...) -- CPU_ReadMem(2 bytes @ 0x400F40AB) -- Data:  00 00  returns 0x00 (0001ms, 0887ms total)
T2930 001:040 JLINK_ReadMem (0x400F40AC, 0x0002 Bytes, ...) -- CPU_ReadMem(2 bytes @ 0x400F40AC) -- Data:  00 00  returns 0x00 (0000ms, 0887ms total)
T2930 001:040 JLINK_ReadMem (0x400F40AD, 0x0002 Bytes, ...) -- CPU_ReadMem(2 bytes @ 0x400F40AD) -- Data:  00 00  returns 0x00 (0001ms, 0888ms total)
T2930 001:042 JLINK_ReadMem (0x400F40AE, 0x0002 Bytes, ...) -- CPU_ReadMem(2 bytes @ 0x400F40AE) -- Data:  00 00  returns 0x00 (0000ms, 0888ms total)
T2930 001:042 JLINK_ReadMem (0x400F40AF, 0x0002 Bytes, ...) -- CPU_ReadMem(2 bytes @ 0x400F40AF) -- Data:  00 00  returns 0x00 (0001ms, 0889ms total)
T2930 001:043 JLINK_ReadMem (0x400F40B0, 0x0002 Bytes, ...) -- CPU_ReadMem(2 bytes @ 0x400F40B0) -- Data:  00 00  returns 0x00 (0001ms, 0890ms total)
T2930 001:044 JLINK_ReadMem (0x400F40B1, 0x0002 Bytes, ...) -- CPU_ReadMem(2 bytes @ 0x400F40B1) -- Data:  00 00  returns 0x00 (0001ms, 0891ms total)
T2930 001:045 JLINK_ReadMem (0x400F40B2, 0x0002 Bytes, ...) -- CPU_ReadMem(2 bytes @ 0x400F40B2) -- Data:  00 00  returns 0x00 (0001ms, 0892ms total)
T2930 001:046 JLINK_ReadMem (0x400F40B3, 0x0002 Bytes, ...) -- CPU_ReadMem(2 bytes @ 0x400F40B3) -- Data:  00 00  returns 0x00 (0000ms, 0892ms total)
T2930 001:046 JLINK_ReadMem (0x400F40B4, 0x0002 Bytes, ...) -- CPU_ReadMem(2 bytes @ 0x400F40B4) -- Data:  00 00  returns 0x00 (0001ms, 0893ms total)
T2930 001:047 JLINK_ReadMem (0x400F40B5, 0x0002 Bytes, ...) -- CPU_ReadMem(2 bytes @ 0x400F40B5) -- Data:  00 00  returns 0x00 (0001ms, 0894ms total)
T2930 001:048 JLINK_ReadMem (0x400F40B6, 0x0002 Bytes, ...) -- CPU_ReadMem(2 bytes @ 0x400F40B6) -- Data:  00 00  returns 0x00 (0001ms, 0895ms total)
T2930 001:049 JLINK_ReadMem (0x400F40B7, 0x0002 Bytes, ...) -- CPU_ReadMem(2 bytes @ 0x400F40B7) -- Data:  00 00  returns 0x00 (0001ms, 0896ms total)
T2930 001:050 JLINK_ReadMem (0x400F40B8, 0x0002 Bytes, ...) -- CPU_ReadMem(2 bytes @ 0x400F40B8) -- Data:  00 00  returns 0x00 (0001ms, 0897ms total)
T2930 001:051 JLINK_ReadMem (0x400F40B9, 0x0002 Bytes, ...) -- CPU_ReadMem(2 bytes @ 0x400F40B9) -- Data:  00 00  returns 0x00 (0001ms, 0898ms total)
T2930 001:052 JLINK_ReadMem (0x400F40BA, 0x0002 Bytes, ...) -- CPU_ReadMem(2 bytes @ 0x400F40BA) -- Data:  00 00  returns 0x00 (0000ms, 0898ms total)
T2930 001:052 JLINK_ReadMem (0x400F40BB, 0x0002 Bytes, ...) -- CPU_ReadMem(2 bytes @ 0x400F40BB) -- Data:  00 00  returns 0x00 (0001ms, 0899ms total)
T2930 001:054 JLINK_ReadMem (0x400F40BC, 0x0002 Bytes, ...) -- CPU_ReadMem(2 bytes @ 0x400F40BC) -- Data:  00 00  returns 0x00 (0000ms, 0899ms total)
T2930 001:054 JLINK_ReadMem (0x400F40BD, 0x0002 Bytes, ...) -- CPU_ReadMem(2 bytes @ 0x400F40BD) -- Data:  00 00  returns 0x00 (0001ms, 0900ms total)
T2930 001:055 JLINK_ReadMem (0x400F40BE, 0x0002 Bytes, ...) -- CPU_ReadMem(2 bytes @ 0x400F40BE) -- Data:  00 00  returns 0x00 (0001ms, 0901ms total)
T2930 001:056 JLINK_ReadMem (0x400F40BF, 0x0002 Bytes, ...) -- CPU_ReadMem(2 bytes @ 0x400F40BF) -- Data:  00 00  returns 0x00 (0001ms, 0902ms total)
T2930 001:057 JLINK_ReadMem (0x400F40C0, 0x0002 Bytes, ...) -- CPU_ReadMem(2 bytes @ 0x400F40C0) -- Data:  00 00  returns 0x00 (0000ms, 0902ms total)
T2930 001:057 JLINK_ReadMem (0x400F40C1, 0x0002 Bytes, ...) -- CPU_ReadMem(2 bytes @ 0x400F40C1) -- Data:  00 00  returns 0x00 (0001ms, 0903ms total)
T2930 001:058 JLINK_ReadMem (0x400F40C2, 0x0002 Bytes, ...) -- CPU_ReadMem(2 bytes @ 0x400F40C2) -- Data:  00 00  returns 0x00 (0001ms, 0904ms total)
T2930 001:059 JLINK_ReadMem (0x400F40C3, 0x0002 Bytes, ...) -- CPU_ReadMem(2 bytes @ 0x400F40C3) -- Data:  00 00  returns 0x00 (0001ms, 0905ms total)
T2930 001:060 JLINK_ReadMem (0x400F40C4, 0x0002 Bytes, ...) -- CPU_ReadMem(2 bytes @ 0x400F40C4) -- Data:  00 00  returns 0x00 (0000ms, 0905ms total)
T2930 001:060 JLINK_ReadMem (0x400F40C5, 0x0002 Bytes, ...) -- CPU_ReadMem(2 bytes @ 0x400F40C5) -- Data:  00 00  returns 0x00 (0001ms, 0906ms total)
T2930 001:061 JLINK_ReadMem (0x400F40C6, 0x0002 Bytes, ...) -- CPU_ReadMem(2 bytes @ 0x400F40C6) -- Data:  00 00  returns 0x00 (0001ms, 0907ms total)
T2930 001:062 JLINK_ReadMem (0x400F40C7, 0x0002 Bytes, ...) -- CPU_ReadMem(2 bytes @ 0x400F40C7) -- Data:  00 00  returns 0x00 (0001ms, 0908ms total)
T2930 001:063 JLINK_ReadMem (0x400F40C8, 0x0002 Bytes, ...) -- CPU_ReadMem(2 bytes @ 0x400F40C8) -- Data:  00 00  returns 0x00 (0001ms, 0909ms total)
T2930 001:064 JLINK_ReadMem (0x400F40C9, 0x0002 Bytes, ...) -- CPU_ReadMem(2 bytes @ 0x400F40C9) -- Data:  00 00  returns 0x00 (0001ms, 0910ms total)
T2930 001:065 JLINK_ReadMem (0x400F40CA, 0x0002 Bytes, ...) -- CPU_ReadMem(2 bytes @ 0x400F40CA) -- Data:  00 00  returns 0x00 (0000ms, 0910ms total)
T2930 001:065 JLINK_ReadMem (0x400F40CB, 0x0002 Bytes, ...) -- CPU_ReadMem(2 bytes @ 0x400F40CB) -- Data:  00 00  returns 0x00 (0001ms, 0911ms total)
T2930 001:066 JLINK_ReadMem (0x400F40CC, 0x0002 Bytes, ...) -- CPU_ReadMem(2 bytes @ 0x400F40CC) -- Data:  00 00  returns 0x00 (0001ms, 0912ms total)
T2930 001:067 JLINK_ReadMem (0x400F40CD, 0x0002 Bytes, ...) -- CPU_ReadMem(2 bytes @ 0x400F40CD) -- Data:  00 00  returns 0x00 (0001ms, 0913ms total)
T2930 001:068 JLINK_ReadMem (0x400F40CE, 0x0002 Bytes, ...) -- CPU_ReadMem(2 bytes @ 0x400F40CE) -- Data:  00 00  returns 0x00 (0001ms, 0914ms total)
T2930 001:069 JLINK_ReadMem (0x400F40CF, 0x0002 Bytes, ...) -- CPU_ReadMem(2 bytes @ 0x400F40CF) -- Data:  00 00  returns 0x00 (0001ms, 0915ms total)
T2930 001:070 JLINK_ReadMem (0x400F40D0, 0x0002 Bytes, ...) -- CPU_ReadMem(2 bytes @ 0x400F40D0) -- Data:  00 00  returns 0x00 (0001ms, 0916ms total)
T2930 001:071 JLINK_ReadMem (0x400F40D1, 0x0002 Bytes, ...) -- CPU_ReadMem(2 bytes @ 0x400F40D1) -- Data:  00 00  returns 0x00 (0001ms, 0917ms total)
T2930 001:072 JLINK_ReadMem (0x400F40D2, 0x0002 Bytes, ...) -- CPU_ReadMem(2 bytes @ 0x400F40D2) -- Data:  00 00  returns 0x00 (0000ms, 0917ms total)
T2930 001:072 JLINK_ReadMem (0x400F40D3, 0x0002 Bytes, ...) -- CPU_ReadMem(2 bytes @ 0x400F40D3) -- Data:  00 00  returns 0x00 (0001ms, 0918ms total)
T2930 001:073 JLINK_ReadMem (0x400F40D4, 0x0002 Bytes, ...) -- CPU_ReadMem(2 bytes @ 0x400F40D4) -- Data:  00 00  returns 0x00 (0001ms, 0919ms total)
T2930 001:074 JLINK_ReadMem (0x400F40D5, 0x0002 Bytes, ...) -- CPU_ReadMem(2 bytes @ 0x400F40D5) -- Data:  00 00  returns 0x00 (0001ms, 0920ms total)
T2930 001:075 JLINK_ReadMem (0x400F40D6, 0x0002 Bytes, ...) -- CPU_ReadMem(2 bytes @ 0x400F40D6) -- Data:  00 00  returns 0x00 (0001ms, 0921ms total)
T2930 001:076 JLINK_ReadMem (0x400F40D7, 0x0002 Bytes, ...) -- CPU_ReadMem(2 bytes @ 0x400F40D7) -- Data:  00 00  returns 0x00 (0001ms, 0922ms total)
T2930 001:077 JLINK_ReadMem (0x400F40D8, 0x0002 Bytes, ...) -- CPU_ReadMem(2 bytes @ 0x400F40D8) -- Data:  00 00  returns 0x00 (0000ms, 0922ms total)
T2930 001:077 JLINK_ReadMem (0x400F40D9, 0x0002 Bytes, ...) -- CPU_ReadMem(2 bytes @ 0x400F40D9) -- Data:  00 00  returns 0x00 (0001ms, 0923ms total)
T2930 001:078 JLINK_ReadMem (0x400F40DA, 0x0002 Bytes, ...) -- CPU_ReadMem(2 bytes @ 0x400F40DA) -- Data:  00 00  returns 0x00 (0001ms, 0924ms total)
T2930 001:079 JLINK_ReadMem (0x400F40DB, 0x0002 Bytes, ...) -- CPU_ReadMem(2 bytes @ 0x400F40DB) -- Data:  00 00  returns 0x00 (0001ms, 0925ms total)
T2930 001:080 JLINK_ReadMem (0x400F40DC, 0x0002 Bytes, ...) -- CPU_ReadMem(2 bytes @ 0x400F40DC) -- Data:  00 00  returns 0x00 (0001ms, 0926ms total)
T2930 001:081 JLINK_ReadMem (0x400F40DD, 0x0002 Bytes, ...) -- CPU_ReadMem(2 bytes @ 0x400F40DD) -- Data:  00 00  returns 0x00 (0001ms, 0927ms total)
T2930 001:082 JLINK_ReadMem (0x400F40DE, 0x0002 Bytes, ...) -- CPU_ReadMem(2 bytes @ 0x400F40DE) -- Data:  00 00  returns 0x00 (0001ms, 0928ms total)
T2930 001:083 JLINK_ReadMem (0x400F40DF, 0x0002 Bytes, ...) -- CPU_ReadMem(2 bytes @ 0x400F40DF) -- Data:  00 00  returns 0x00 (0001ms, 0929ms total)
T2930 001:084 JLINK_ReadMem (0x400F40E0, 0x0002 Bytes, ...) -- CPU_ReadMem(2 bytes @ 0x400F40E0) -- Data:  00 00  returns 0x00 (0000ms, 0929ms total)
T2930 001:084 JLINK_ReadMem (0x400F40E1, 0x0002 Bytes, ...) -- CPU_ReadMem(2 bytes @ 0x400F40E1) -- Data:  00 00  returns 0x00 (0001ms, 0930ms total)
T2930 001:086 JLINK_ReadMem (0x400F40E2, 0x0002 Bytes, ...) -- CPU_ReadMem(2 bytes @ 0x400F40E2) -- Data:  00 00  returns 0x00 (0000ms, 0930ms total)
T2930 001:086 JLINK_ReadMem (0x400F40E3, 0x0002 Bytes, ...) -- CPU_ReadMem(2 bytes @ 0x400F40E3) -- Data:  00 00  returns 0x00 (0001ms, 0931ms total)
T2930 001:087 JLINK_ReadMem (0x400F40E4, 0x0002 Bytes, ...) -- CPU_ReadMem(2 bytes @ 0x400F40E4) -- Data:  00 00  returns 0x00 (0002ms, 0933ms total)
T2930 001:089 JLINK_ReadMem (0x400F40E5, 0x0002 Bytes, ...) -- CPU_ReadMem(2 bytes @ 0x400F40E5) -- Data:  00 00  returns 0x00 (0000ms, 0933ms total)
T2930 001:089 JLINK_ReadMem (0x400F40E6, 0x0002 Bytes, ...) -- CPU_ReadMem(2 bytes @ 0x400F40E6) -- Data:  00 00  returns 0x00 (0001ms, 0934ms total)
T2930 001:090 JLINK_ReadMem (0x400F40E7, 0x0002 Bytes, ...) -- CPU_ReadMem(2 bytes @ 0x400F40E7) -- Data:  00 00  returns 0x00 (0001ms, 0935ms total)
T2930 001:091 JLINK_ReadMem (0x400F40E8, 0x0002 Bytes, ...) -- CPU_ReadMem(2 bytes @ 0x400F40E8) -- Data:  00 00  returns 0x00 (0001ms, 0936ms total)
T2930 001:092 JLINK_ReadMem (0x400F40E9, 0x0002 Bytes, ...) -- CPU_ReadMem(2 bytes @ 0x400F40E9) -- Data:  00 00  returns 0x00 (0001ms, 0937ms total)
T2930 001:093 JLINK_ReadMem (0x400F40EA, 0x0002 Bytes, ...) -- CPU_ReadMem(2 bytes @ 0x400F40EA) -- Data:  00 00  returns 0x00 (0001ms, 0938ms total)
T2930 001:094 JLINK_ReadMem (0x400F40EB, 0x0002 Bytes, ...) -- CPU_ReadMem(2 bytes @ 0x400F40EB) -- Data:  00 00  returns 0x00 (0000ms, 0938ms total)
T2930 001:094 JLINK_ReadMem (0x400F40EC, 0x0002 Bytes, ...) -- CPU_ReadMem(2 bytes @ 0x400F40EC) -- Data:  00 00  returns 0x00 (0001ms, 0939ms total)
T2930 001:095 JLINK_ReadMem (0x400F40ED, 0x0002 Bytes, ...) -- CPU_ReadMem(2 bytes @ 0x400F40ED) -- Data:  00 00  returns 0x00 (0001ms, 0940ms total)
T2930 001:096 JLINK_ReadMem (0x400F40EE, 0x0002 Bytes, ...) -- CPU_ReadMem(2 bytes @ 0x400F40EE) -- Data:  00 00  returns 0x00 (0001ms, 0941ms total)
T2930 001:097 JLINK_ReadMem (0x400F40EF, 0x0002 Bytes, ...) -- CPU_ReadMem(2 bytes @ 0x400F40EF) -- Data:  00 00  returns 0x00 (0001ms, 0942ms total)
T2930 001:098 JLINK_ReadMem (0x400F40F0, 0x0002 Bytes, ...) -- CPU_ReadMem(2 bytes @ 0x400F40F0) -- Data:  00 00  returns 0x00 (0001ms, 0943ms total)
T2930 001:099 JLINK_ReadMem (0x400F40F1, 0x0002 Bytes, ...) -- CPU_ReadMem(2 bytes @ 0x400F40F1) -- Data:  00 00  returns 0x00 (0001ms, 0944ms total)
T2930 001:100 JLINK_ReadMem (0x400F40F2, 0x0002 Bytes, ...) -- CPU_ReadMem(2 bytes @ 0x400F40F2) -- Data:  00 00  returns 0x00 (0000ms, 0944ms total)
T2930 001:100 JLINK_ReadMem (0x400F40F3, 0x0002 Bytes, ...) -- CPU_ReadMem(2 bytes @ 0x400F40F3) -- Data:  00 00  returns 0x00 (0001ms, 0945ms total)
T2930 001:101 JLINK_ReadMem (0x400F40F4, 0x0002 Bytes, ...) -- CPU_ReadMem(2 bytes @ 0x400F40F4) -- Data:  00 00  returns 0x00 (0001ms, 0946ms total)
T2930 001:102 JLINK_ReadMem (0x400F40F5, 0x0002 Bytes, ...) -- CPU_ReadMem(2 bytes @ 0x400F40F5) -- Data:  00 00  returns 0x00 (0001ms, 0947ms total)
T2930 001:103 JLINK_ReadMem (0x400F40F6, 0x0002 Bytes, ...) -- CPU_ReadMem(2 bytes @ 0x400F40F6) -- Data:  00 00  returns 0x00 (0001ms, 0948ms total)
T2930 001:104 JLINK_ReadMem (0x400F40F7, 0x0002 Bytes, ...) -- CPU_ReadMem(2 bytes @ 0x400F40F7) -- Data:  00 00  returns 0x00 (0001ms, 0949ms total)
T2930 001:105 JLINK_ReadMem (0x400F40F8, 0x0002 Bytes, ...) -- CPU_ReadMem(2 bytes @ 0x400F40F8) -- Data:  00 00  returns 0x00 (0001ms, 0950ms total)
T2930 001:106 JLINK_ReadMem (0x400F40F9, 0x0002 Bytes, ...) -- CPU_ReadMem(2 bytes @ 0x400F40F9) -- Data:  00 00  returns 0x00 (0001ms, 0951ms total)
T2930 001:107 JLINK_ReadMem (0x400F40FA, 0x0002 Bytes, ...) -- CPU_ReadMem(2 bytes @ 0x400F40FA) -- Data:  00 00  returns 0x00 (0000ms, 0951ms total)
T2930 001:107 JLINK_ReadMem (0x400F40FB, 0x0002 Bytes, ...) -- CPU_ReadMem(2 bytes @ 0x400F40FB) -- Data:  00 00  returns 0x00 (0002ms, 0953ms total)
T2930 001:109 JLINK_ReadMem (0x400F40FC, 0x0002 Bytes, ...) -- CPU_ReadMem(2 bytes @ 0x400F40FC) -- Data:  00 00  returns 0x00 (0000ms, 0953ms total)
